
T216C 000:115 SEGGER J-Link V4.62 Log File (0001ms, 0116ms total)
T216C 000:115 DLL Compiled: Jan 25 2013 15:19:47 (0001ms, 0116ms total)
T216C 000:115 Logging started @ 2017-11-23 14:45 (0001ms, 0116ms total)
T216C 000:116 JLINK_SetWarnOutHandler(...) (0000ms, 0116ms total)
T216C 000:116 JLINK_OpenEx(...)
Firmware: J-Link ARM V8 compiled Nov 14 2012 22:34:52
Hardware: V8.00
S/N: 799713843
Feature(s): RDI,FlashDL,FlashBP,JFlash,GDBFULL  returns O.K. (0068ms, 0184ms total)
T216C 000:184 JLINK_SetErrorOutHandler(...) (0000ms, 0184ms total)
T216C 000:184 JLINK_ExecCommand("ProjectFile = "D:\多维-王文立\STM32\机智云\home-assistant\Project\JLinkSettings.ini"", ...)  returns 0x00 (0036ms, 0220ms total)
T216C 000:222 JLINK_ExecCommand("Device = STM32F103C8", ...)
                JLINK_ExecCommand("map ram 0x20000000 - 0x20004FFF", ...)  returns 0x00 (0000ms, 0000ms total)
                JLINK_AddMirrorAreaEx(Addr = 0x00000000, Size = 0x00000000) (0000ms, 0000ms total)
              Device "STM32F103C8" selected (64 KB flash, 20 KB RAM).  returns 0x00 (0002ms, 0222ms total)
T216C 000:224 JLINK_ExecCommand("DisableConnectionTimeout", ...)  returns 0x00 (0000ms, 0222ms total)
T216C 000:224 JLINK_TIF_Select(JLINKARM_TIF_SWD)  returns 0x00 (0005ms, 0227ms total)
T216C 000:229 JLINK_SetSpeed(2000) (0001ms, 0228ms total)
T216C 000:230 JLINK_GetHardwareVersion()  returns 0x13880 (0000ms, 0228ms total)
T216C 000:230 JLINK_GetDLLVersion()  returns 46200 (0000ms, 0228ms total)
T216C 000:230 JLINK_GetFirmwareString(...) (0000ms, 0228ms total)
T216C 000:234 JLINK_GetDLLVersion()  returns 46200 (0000ms, 0228ms total)
T216C 000:234 JLINK_GetCompileDateTime() (0000ms, 0228ms total)
T216C 000:235 JLINK_GetFirmwareString(...) (0000ms, 0228ms total)
T216C 000:236 JLINK_GetHardwareVersion()  returns 0x13880 (0000ms, 0228ms total)
T216C 000:239 JLINK_GetId() >0x108 TIF>Found SWD-DP with ID 0x1BA01477 >0x0D TIF> >0x28 TIF> >0x0D TIF> >0x28 TIF> >0x0D TIF> >0x21 TIF> >0x0D TIF> >0x28 TIF> >0x0D TIF> >0x28 TIF> >0x0D TIF> >0x28 TIF> >0x0D TIF> >0x21 TIF> >0x0D TIF> >0x21 TIF> >0x0D TIF> >0x28 TIF> >0x0D TIF> >0x21 TIF> >0x0D TIF> >0x21 TIF> >0x0D TIF> >0x28 TIF> >0x0D TIF> >0x28 TIF> >0x108 TIF>Found SWD-DP with ID 0x1BA01477 >0x0D TIF> >0x21 TIF> >0x0D TIF> >0x28 TIF> >0x0D TIF> >0x28 TIF> >0x0D TIF> >0x21 TIF> >0x0D TIF> >0x21 TIF>
 >0x0D TIF> >0x28 TIF> >0x0D TIF> >0x21 TIF> >0x0D TIF> >0x21 TIF> >0x0D TIF> >0x21 TIF> >0x0D TIF> >0x21 TIF> >0x0D TIF> >0x21 TIF> >0x0D TIF> >0x28 TIF> >0x0D TIF> >0x28 TIF> >0x0D TIF> >0x21 TIF> >0x0D TIF> >0x21 TIF> >0x0D TIF> >0x28 TIF> >0x0D TIF> >0x21 TIF> >0x0D TIF> >0x21 TIF> >0x0D TIF> >0x28 TIF> >0x0D TIF> >0x28 TIF> >0x0D TIF> >0x28 TIF> >0x0D TIF> >0x21 TIF> >0x0D TIF> >0x21 TIF> >0x0D TIF> >0x28 TIF> >0x0D TIF> >0x28 TIF> >0x0D TIF> >0x28 TIF> >0x0D TIF> >0x28 TIF> >0x0D TIF> >0x28 TIF>
 >0x0D TIF> >0x21 TIF> >0x0D TIF> >0x21 TIF> >0x0D TIF> >0x21 TIF>TPIU fitted. >0x0D TIF> >0x28 TIF> >0x0D TIF> >0x21 TIF> >0x0D TIF> >0x21 TIF> >0x0D TIF> >0x28 TIF> >0x0D TIF> >0x21 TIF> >0x0D TIF> >0x21 TIF>FPUnit: 6 code (BP) slots and 2 literal slots >0x0D TIF> >0x28 TIF> >0x0D TIF> >0x21 TIF> >0x0D TIF> >0x21 TIF> >0x0D TIF> >0x28 TIF> >0x0D TIF> >0x28 TIF> >0x0D TIF> >0x28 TIF> >0x0D TIF> >0x21 TIF> >0x0D TIF> >0x21 TIF> >0x0D TIF> >0x28 TIF> >0x0D TIF> >0x21 TIF> >0x0D TIF> >0x21 TIF> >0x0D TIF>
 >0x28 TIF> >0x0D TIF> >0x21 TIF> >0x0D TIF> >0x21 TIF>Found Cortex-M3 r1p1, Little endian. >0x0D TIF> >0x21 TIF>  returns 0x1BA01477 (0147ms, 0375ms total)
T216C 000:386 JLINK_GetDeviceFamily()  returns 3 (0000ms, 0375ms total)
T216C 000:389 JLINK_ReadMem (0xE00FFFF0, 0x0010 Bytes, ...) -- CPU is running -- CPU_ReadMem(16 bytes @ 0xE00FFFF0) -- Data:  0D 00 00 00 10 00 00 00 05 00 00 00 B1 00 00 00  returns 0x00 (0001ms, 0376ms total)
T216C 000:390 JLINK_ReadMem (0xE00FFFD0, 0x0020 Bytes, ...) -- CPU is running -- CPU_ReadMem(32 bytes @ 0xE00FFFD0) -- Data:  00 00 00 00 00 00 00 00 00 00 00 00 00 00 00 00 ...  returns 0x00 (0001ms, 0377ms total)
T216C 000:391 JLINK_ReadMem (0xE00FF000, 0x0018 Bytes, ...) -- CPU is running -- CPU_ReadMem(24 bytes @ 0xE00FF000) -- Data:  03 F0 F0 FF 03 20 F0 FF 03 30 F0 FF 03 10 F0 FF ...  returns 0x00 (0001ms, 0378ms total)
T216C 000:392 JLINK_ReadMemU32(0xE000ED00, 0x0001 Items, ...) -- CPU is running -- CPU_ReadMem(4 bytes @ 0xE000ED00) -- Data:  31 C2 1F 41  returns 0x01 (0001ms, 0379ms total)
T216C 000:393 JLINK_SetResetType(JLINKARM_RESET_TYPE_NORMAL)  returns JLINKARM_RESET_TYPE_NORMAL (0000ms, 0379ms total)
T216C 000:393 JLINK_Reset() -- CPU is running -- CPU_WriteMem(4 bytes @ 0xE000EDF0) -- CPU is running -- CPU_WriteMem(4 bytes @ 0xE000EDFC) >0x35 TIF> -- CPU is running -- CPU_WriteMem(4 bytes @ 0xE000ED0C) -- CPU is running -- CPU_ReadMem(4 bytes @ 0xE000EDF0) -- CPU is running -- CPU_ReadMem(4 bytes @ 0xE000EDF0) -- CPU is running -- CPU_WriteMem(4 bytes @ 0xE000EDF0) -- CPU is running -- CPU_WriteMem(4 bytes @ 0xE000EDFC) -- CPU is running -- CPU_ReadMem(4 bytes @ 0xE000EDF0)
 -- CPU_WriteMem(4 bytes @ 0xE0002000) (0022ms, 0401ms total)
T216C 000:415 JLINK_Halt()  returns 0x00 (0000ms, 0401ms total)
T216C 000:415 JLINK_IsHalted()  returns TRUE (0000ms, 0401ms total)
T216C 000:415 JLINK_ReadMemU32(0xE000EDF0, 0x0001 Items, ...) -- CPU_ReadMem(4 bytes @ 0xE000EDF0) -- Data:  03 00 03 00  returns 0x01 (0001ms, 0402ms total)
T216C 000:416 JLINK_WriteU32(0xE000EDF0, 0xA05F0003) -- CPU_WriteMem(4 bytes @ 0xE000EDF0)  returns 0x00 (0001ms, 0403ms total)
T216C 000:417 JLINK_WriteU32(0xE000EDFC, 0x01000000) -- CPU_WriteMem(4 bytes @ 0xE000EDFC)  returns 0x00 (0001ms, 0404ms total)
T216C 000:427 JLINK_GetHWStatus(...)  returns 0x00 (0001ms, 0405ms total)
T216C 000:432 JLINK_GetNumBPUnits(Type = 0xFFFFFF00)  returns 0x06 (0000ms, 0405ms total)
T216C 000:432 JLINK_GetNumBPUnits(Type = 0xF0)  returns 0x2000 (0000ms, 0405ms total)
T216C 000:432 JLINK_GetNumWPUnits()  returns 0x04 (0000ms, 0405ms total)
T216C 000:440 JLINK_GetSpeed()  returns 0x7D0 (0000ms, 0405ms total)
T216C 000:442 JLINK_ReadMemU32(0xE000E004, 0x0001 Items, ...) -- CPU_ReadMem(4 bytes @ 0xE000E004) -- Data:  01 00 00 00  returns 0x01 (0002ms, 0407ms total)
T216C 000:444 JLINK_ReadMemU32(0xE000E004, 0x0001 Items, ...) -- CPU_ReadMem(4 bytes @ 0xE000E004) -- Data:  01 00 00 00  returns 0x01 (0001ms, 0408ms total)
T216C 000:445 JLINK_WriteMem(0xE0001000, 0x001C Bytes, ...) -- Data:  01 00 00 00 00 00 00 00 00 00 00 00 00 00 00 00 ... -- CPU_WriteMem(28 bytes @ 0xE0001000)  returns 0x1C (0001ms, 0409ms total)
T216C 000:446 JLINK_ReadMem (0xE0001000, 0x001C Bytes, ...) -- CPU_ReadMem(28 bytes @ 0xE0001000) -- Data:  01 00 00 40 00 00 00 00 00 00 00 00 00 00 00 00 ...  returns 0x00 (0001ms, 0410ms total)
T216C 000:447 JLINK_Halt()  returns 0x00 (0000ms, 0410ms total)
T216C 000:447 JLINK_IsHalted()  returns TRUE (0000ms, 0410ms total)
T216C 000:510 JLINK_WriteMem(0x20000000, 0x0164 Bytes, ...) -- Data:  00 BE 0A E0 0D 78 2D 06 68 40 08 24 40 00 00 D3 ... -- CPU_WriteMem(356 bytes @ 0x20000000)  returns 0x164 (0005ms, 0415ms total)
T216C 000:515 JLINK_WriteReg(R0, 0x08000000)  returns 0x00 (0000ms, 0415ms total)
T216C 000:515 JLINK_WriteReg(R1, 0x007A1200)  returns 0x00 (0000ms, 0415ms total)
T216C 000:515 JLINK_WriteReg(R2, 0x00000001)  returns 0x00 (0000ms, 0415ms total)
T216C 000:515 JLINK_WriteReg(R3, 0x00000000)  returns 0x00 (0000ms, 0415ms total)
T216C 000:515 JLINK_WriteReg(R4, 0x00000000)  returns 0x00 (0000ms, 0415ms total)
T216C 000:515 JLINK_WriteReg(R5, 0x00000000)  returns 0x00 (0000ms, 0415ms total)
T216C 000:515 JLINK_WriteReg(R6, 0x00000000)  returns 0x00 (0000ms, 0415ms total)
T216C 000:515 JLINK_WriteReg(R7, 0x00000000)  returns 0x00 (0000ms, 0415ms total)
T216C 000:515 JLINK_WriteReg(R8, 0x00000000)  returns 0x00 (0000ms, 0415ms total)
T216C 000:515 JLINK_WriteReg(R9, 0x20000160)  returns 0x00 (0000ms, 0415ms total)
T216C 000:515 JLINK_WriteReg(R10, 0x00000000)  returns 0x00 (0000ms, 0415ms total)
T216C 000:515 JLINK_WriteReg(R11, 0x00000000)  returns 0x00 (0000ms, 0415ms total)
T216C 000:515 JLINK_WriteReg(R12, 0x00000000)  returns 0x00 (0000ms, 0415ms total)
T216C 000:515 JLINK_WriteReg(R13, 0x20000800)  returns 0x00 (0001ms, 0416ms total)
T216C 000:516 JLINK_WriteReg(R14, 0x20000001)  returns 0x00 (0000ms, 0416ms total)
T216C 000:516 JLINK_WriteReg(R15, 0x20000038)  returns 0x00 (0000ms, 0416ms total)
T216C 000:516 JLINK_WriteReg(XPSR, 0x01000000)  returns 0x00 (0000ms, 0416ms total)
T216C 000:516 JLINK_WriteReg(MSP, 0x20000800)  returns 0x00 (0000ms, 0416ms total)
T216C 000:516 JLINK_WriteReg(PSP, 0x20000800)  returns 0x00 (0000ms, 0416ms total)
T216C 000:516 JLINK_WriteReg(CFBP, 0x00000000)  returns 0x00 (0000ms, 0416ms total)
T216C 000:516 JLINK_SetBPEx(Addr = 0x20000000, Type = 0xFFFFFFF2) -- CPU_ReadMem(2 bytes @ 0x20000000)  returns 0x00000001 (0001ms, 0417ms total)
T216C 000:517 JLINK_Go() -- CPU_WriteMem(2 bytes @ 0x20000000) -- CPU_WriteMem(4 bytes @ 0xE0002008) -- CPU_WriteMem(4 bytes @ 0xE000200C) -- CPU_WriteMem(4 bytes @ 0xE0002010) -- CPU_WriteMem(4 bytes @ 0xE0002014) -- CPU_WriteMem(4 bytes @ 0xE0002018) -- CPU_WriteMem(4 bytes @ 0xE000201C) (0013ms, 0430ms total)
T216C 000:530 JLINK_IsHalted() -- CPU_ReadMem(2 bytes @ 0x20000000)  returns TRUE (0006ms, 0436ms total)
T216C 000:536 JLINK_ReadReg(R15)  returns 0x20000000 (0000ms, 0430ms total)
T216C 000:536 JLINK_ClrBPEx(BPHandle = 0x00000001)  returns 0x00 (0000ms, 0430ms total)
T216C 000:536 JLINK_ReadReg(R0)  returns 0x00000000 (0000ms, 0430ms total)
T216C 000:537 JLINK_WriteReg(R0, 0x08000000)  returns 0x00 (0000ms, 0430ms total)
T216C 000:537 JLINK_WriteReg(R1, 0x007A1200)  returns 0x00 (0000ms, 0430ms total)
T216C 000:537 JLINK_WriteReg(R2, 0x00000001)  returns 0x00 (0001ms, 0431ms total)
T216C 000:538 JLINK_WriteReg(R3, 0x00000000)  returns 0x00 (0000ms, 0431ms total)
T216C 000:538 JLINK_WriteReg(R4, 0x00000000)  returns 0x00 (0000ms, 0431ms total)
T216C 000:538 JLINK_WriteReg(R5, 0x00000000)  returns 0x00 (0000ms, 0431ms total)
T216C 000:538 JLINK_WriteReg(R6, 0x00000000)  returns 0x00 (0000ms, 0431ms total)
T216C 000:538 JLINK_WriteReg(R7, 0x00000000)  returns 0x00 (0000ms, 0431ms total)
T216C 000:538 JLINK_WriteReg(R8, 0x00000000)  returns 0x00 (0000ms, 0431ms total)
T216C 000:538 JLINK_WriteReg(R9, 0x20000160)  returns 0x00 (0000ms, 0431ms total)
T216C 000:538 JLINK_WriteReg(R10, 0x00000000)  returns 0x00 (0000ms, 0431ms total)
T216C 000:538 JLINK_WriteReg(R11, 0x00000000)  returns 0x00 (0000ms, 0431ms total)
T216C 000:538 JLINK_WriteReg(R12, 0x00000000)  returns 0x00 (0000ms, 0431ms total)
T216C 000:538 JLINK_WriteReg(R13, 0x20000800)  returns 0x00 (0000ms, 0431ms total)
T216C 000:538 JLINK_WriteReg(R14, 0x20000001)  returns 0x00 (0000ms, 0431ms total)
T216C 000:538 JLINK_WriteReg(R15, 0x2000007C)  returns 0x00 (0000ms, 0431ms total)
T216C 000:538 JLINK_WriteReg(XPSR, 0x01000000)  returns 0x00 (0000ms, 0431ms total)
T216C 000:538 JLINK_WriteReg(MSP, 0x20000800)  returns 0x00 (0000ms, 0431ms total)
T216C 000:538 JLINK_WriteReg(PSP, 0x20000800)  returns 0x00 (0000ms, 0431ms total)
T216C 000:538 JLINK_WriteReg(CFBP, 0x00000000)  returns 0x00 (0000ms, 0431ms total)
T216C 000:538 JLINK_SetBPEx(Addr = 0x20000000, Type = 0xFFFFFFF2)  returns 0x00000002 (0000ms, 0431ms total)
T216C 000:538 JLINK_Go() (0003ms, 0434ms total)
T216C 000:541 JLINK_IsHalted()  returns FALSE (0001ms, 0435ms total)
T216C 000:602 JLINK_IsHalted() -- CPU_ReadMem(2 bytes @ 0x20000000)  returns TRUE (0005ms, 0439ms total)
T216C 000:607 JLINK_ReadReg(R15)  returns 0x20000000 (0000ms, 0434ms total)
T216C 000:607 JLINK_ClrBPEx(BPHandle = 0x00000002)  returns 0x00 (0000ms, 0434ms total)
T216C 000:607 JLINK_ReadReg(R0)  returns 0x00000000 (0000ms, 0434ms total)
T216C 000:658 JLINK_WriteReg(R0, 0x00000001)  returns 0x00 (0000ms, 0434ms total)
T216C 000:658 JLINK_WriteReg(R1, 0x007A1200)  returns 0x00 (0000ms, 0434ms total)
T216C 000:658 JLINK_WriteReg(R2, 0x00000001)  returns 0x00 (0000ms, 0434ms total)
T216C 000:658 JLINK_WriteReg(R3, 0x00000000)  returns 0x00 (0000ms, 0434ms total)
T216C 000:658 JLINK_WriteReg(R4, 0x00000000)  returns 0x00 (0000ms, 0434ms total)
T216C 000:658 JLINK_WriteReg(R5, 0x00000000)  returns 0x00 (0000ms, 0434ms total)
T216C 000:658 JLINK_WriteReg(R6, 0x00000000)  returns 0x00 (0000ms, 0434ms total)
T216C 000:658 JLINK_WriteReg(R7, 0x00000000)  returns 0x00 (0000ms, 0434ms total)
T216C 000:658 JLINK_WriteReg(R8, 0x00000000)  returns 0x00 (0000ms, 0434ms total)
T216C 000:658 JLINK_WriteReg(R9, 0x20000160)  returns 0x00 (0000ms, 0434ms total)
T216C 000:658 JLINK_WriteReg(R10, 0x00000000)  returns 0x00 (0000ms, 0434ms total)
T216C 000:658 JLINK_WriteReg(R11, 0x00000000)  returns 0x00 (0000ms, 0434ms total)
T216C 000:658 JLINK_WriteReg(R12, 0x00000000)  returns 0x00 (0000ms, 0434ms total)
T216C 000:658 JLINK_WriteReg(R13, 0x20000800)  returns 0x00 (0000ms, 0434ms total)
T216C 000:658 JLINK_WriteReg(R14, 0x20000001)  returns 0x00 (0000ms, 0434ms total)
T216C 000:658 JLINK_WriteReg(R15, 0x2000006A)  returns 0x00 (0000ms, 0434ms total)
T216C 000:658 JLINK_WriteReg(XPSR, 0x01000000)  returns 0x00 (0000ms, 0434ms total)
T216C 000:658 JLINK_WriteReg(MSP, 0x20000800)  returns 0x00 (0000ms, 0434ms total)
T216C 000:658 JLINK_WriteReg(PSP, 0x20000800)  returns 0x00 (0000ms, 0434ms total)
T216C 000:658 JLINK_WriteReg(CFBP, 0x00000000)  returns 0x00 (0000ms, 0434ms total)
T216C 000:658 JLINK_SetBPEx(Addr = 0x20000000, Type = 0xFFFFFFF2)  returns 0x00000003 (0000ms, 0434ms total)
T216C 000:658 JLINK_Go() (0003ms, 0437ms total)
T216C 000:661 JLINK_IsHalted() -- CPU_ReadMem(2 bytes @ 0x20000000)  returns TRUE (0005ms, 0442ms total)
T216C 000:666 JLINK_ReadReg(R15)  returns 0x20000000 (0000ms, 0437ms total)
T216C 000:666 JLINK_ClrBPEx(BPHandle = 0x00000003)  returns 0x00 (0000ms, 0437ms total)
T216C 000:666 JLINK_ReadReg(R0)  returns 0x00000000 (0000ms, 0437ms total)
T216C 000:671 JLINK_WriteMem(0x20000000, 0x0164 Bytes, ...) -- Data:  00 BE 0A E0 0D 78 2D 06 68 40 08 24 40 00 00 D3 ... -- CPU_WriteMem(356 bytes @ 0x20000000)  returns 0x164 (0005ms, 0442ms total)
T216C 000:676 JLINK_WriteReg(R0, 0x08000000)  returns 0x00 (0000ms, 0442ms total)
T216C 000:676 JLINK_WriteReg(R1, 0x007A1200)  returns 0x00 (0000ms, 0442ms total)
T216C 000:676 JLINK_WriteReg(R2, 0x00000002)  returns 0x00 (0000ms, 0442ms total)
T216C 000:676 JLINK_WriteReg(R3, 0x00000000)  returns 0x00 (0000ms, 0442ms total)
T216C 000:676 JLINK_WriteReg(R4, 0x00000000)  returns 0x00 (0000ms, 0442ms total)
T216C 000:676 JLINK_WriteReg(R5, 0x00000000)  returns 0x00 (0000ms, 0442ms total)
T216C 000:676 JLINK_WriteReg(R6, 0x00000000)  returns 0x00 (0000ms, 0442ms total)
T216C 000:676 JLINK_WriteReg(R7, 0x00000000)  returns 0x00 (0000ms, 0442ms total)
T216C 000:676 JLINK_WriteReg(R8, 0x00000000)  returns 0x00 (0000ms, 0442ms total)
T216C 000:676 JLINK_WriteReg(R9, 0x20000160)  returns 0x00 (0000ms, 0442ms total)
T216C 000:676 JLINK_WriteReg(R10, 0x00000000)  returns 0x00 (0000ms, 0442ms total)
T216C 000:676 JLINK_WriteReg(R11, 0x00000000)  returns 0x00 (0000ms, 0442ms total)
T216C 000:676 JLINK_WriteReg(R12, 0x00000000)  returns 0x00 (0000ms, 0442ms total)
T216C 000:676 JLINK_WriteReg(R13, 0x20000800)  returns 0x00 (0000ms, 0442ms total)
T216C 000:676 JLINK_WriteReg(R14, 0x20000001)  returns 0x00 (0000ms, 0442ms total)
T216C 000:676 JLINK_WriteReg(R15, 0x20000038)  returns 0x00 (0000ms, 0442ms total)
T216C 000:676 JLINK_WriteReg(XPSR, 0x01000000)  returns 0x00 (0000ms, 0442ms total)
T216C 000:676 JLINK_WriteReg(MSP, 0x20000800)  returns 0x00 (0000ms, 0442ms total)
T216C 000:676 JLINK_WriteReg(PSP, 0x20000800)  returns 0x00 (0000ms, 0442ms total)
T216C 000:676 JLINK_WriteReg(CFBP, 0x00000000)  returns 0x00 (0000ms, 0442ms total)
T216C 000:676 JLINK_SetBPEx(Addr = 0x20000000, Type = 0xFFFFFFF2) -- CPU_ReadMem(2 bytes @ 0x20000000)  returns 0x00000004 (0002ms, 0444ms total)
T216C 000:678 JLINK_Go() -- CPU_WriteMem(2 bytes @ 0x20000000) (0004ms, 0448ms total)
T216C 000:682 JLINK_IsHalted() -- CPU_ReadMem(2 bytes @ 0x20000000)  returns TRUE (0005ms, 0453ms total)
T216C 000:687 JLINK_ReadReg(R15)  returns 0x20000000 (0000ms, 0448ms total)
T216C 000:687 JLINK_ClrBPEx(BPHandle = 0x00000004)  returns 0x00 (0000ms, 0448ms total)
T216C 000:687 JLINK_ReadReg(R0)  returns 0x00000000 (0000ms, 0448ms total)
T216C 000:688 JLINK_WriteMem(0x20000164, 0x0400 Bytes, ...) -- Data:  C8 12 00 20 01 01 00 08 6D 24 00 08 6F 24 00 08 ... -- CPU_WriteMem(1024 bytes @ 0x20000164)  returns 0x400 (0011ms, 0459ms total)
T216C 000:699 JLINK_WriteReg(R0, 0x08000000)  returns 0x00 (0000ms, 0459ms total)
T216C 000:699 JLINK_WriteReg(R1, 0x00000400)  returns 0x00 (0000ms, 0459ms total)
T216C 000:699 JLINK_WriteReg(R2, 0x20000164)  returns 0x00 (0000ms, 0459ms total)
T216C 000:699 JLINK_WriteReg(R3, 0x00000000)  returns 0x00 (0000ms, 0459ms total)
T216C 000:699 JLINK_WriteReg(R4, 0x00000000)  returns 0x00 (0000ms, 0459ms total)
T216C 000:699 JLINK_WriteReg(R5, 0x00000000)  returns 0x00 (0000ms, 0459ms total)
T216C 000:699 JLINK_WriteReg(R6, 0x00000000)  returns 0x00 (0000ms, 0459ms total)
T216C 000:699 JLINK_WriteReg(R7, 0x00000000)  returns 0x00 (0000ms, 0459ms total)
T216C 000:699 JLINK_WriteReg(R8, 0x00000000)  returns 0x00 (0000ms, 0459ms total)
T216C 000:699 JLINK_WriteReg(R9, 0x20000160)  returns 0x00 (0000ms, 0459ms total)
T216C 000:699 JLINK_WriteReg(R10, 0x00000000)  returns 0x00 (0000ms, 0459ms total)
T216C 000:699 JLINK_WriteReg(R11, 0x00000000)  returns 0x00 (0000ms, 0459ms total)
T216C 000:699 JLINK_WriteReg(R12, 0x00000000)  returns 0x00 (0000ms, 0459ms total)
T216C 000:699 JLINK_WriteReg(R13, 0x20000800)  returns 0x00 (0000ms, 0459ms total)
T216C 000:699 JLINK_WriteReg(R14, 0x20000001)  returns 0x00 (0000ms, 0459ms total)
T216C 000:699 JLINK_WriteReg(R15, 0x200000F4)  returns 0x00 (0000ms, 0459ms total)
T216C 000:699 JLINK_WriteReg(XPSR, 0x01000000)  returns 0x00 (0000ms, 0459ms total)
T216C 000:699 JLINK_WriteReg(MSP, 0x20000800)  returns 0x00 (0000ms, 0459ms total)
T216C 000:699 JLINK_WriteReg(PSP, 0x20000800)  returns 0x00 (0000ms, 0459ms total)
T216C 000:699 JLINK_WriteReg(CFBP, 0x00000000)  returns 0x00 (0000ms, 0459ms total)
T216C 000:699 JLINK_SetBPEx(Addr = 0x20000000, Type = 0xFFFFFFF2)  returns 0x00000005 (0000ms, 0459ms total)
T216C 000:699 JLINK_Go() (0003ms, 0462ms total)
T216C 000:702 JLINK_IsHalted()  returns FALSE (0001ms, 0463ms total)
T216C 000:727 JLINK_IsHalted()  returns FALSE (0001ms, 0463ms total)
T216C 000:729 JLINK_IsHalted()  returns FALSE (0001ms, 0463ms total)
T216C 000:738 JLINK_IsHalted() -- CPU_ReadMem(2 bytes @ 0x20000000)  returns TRUE (0005ms, 0467ms total)
T216C 000:743 JLINK_ReadReg(R15)  returns 0x20000000 (0000ms, 0462ms total)
T216C 000:743 JLINK_ClrBPEx(BPHandle = 0x00000005)  returns 0x00 (0000ms, 0462ms total)
T216C 000:743 JLINK_ReadReg(R0)  returns 0x00000000 (0000ms, 0462ms total)
T216C 000:745 JLINK_WriteMem(0x20000164, 0x0400 Bytes, ...) -- Data:  08 20 00 F0 3B FB 00 21 08 20 00 F0 37 FB 3A E0 ... -- CPU_WriteMem(1024 bytes @ 0x20000164)  returns 0x400 (0013ms, 0475ms total)
T216C 000:758 JLINK_WriteReg(R0, 0x08000400)  returns 0x00 (0000ms, 0475ms total)
T216C 000:758 JLINK_WriteReg(R1, 0x00000400)  returns 0x00 (0000ms, 0475ms total)
T216C 000:758 JLINK_WriteReg(R2, 0x20000164)  returns 0x00 (0000ms, 0475ms total)
T216C 000:758 JLINK_WriteReg(R3, 0x00000000)  returns 0x00 (0000ms, 0475ms total)
T216C 000:758 JLINK_WriteReg(R4, 0x00000000)  returns 0x00 (0000ms, 0475ms total)
T216C 000:758 JLINK_WriteReg(R5, 0x00000000)  returns 0x00 (0000ms, 0475ms total)
T216C 000:758 JLINK_WriteReg(R6, 0x00000000)  returns 0x00 (0000ms, 0475ms total)
T216C 000:758 JLINK_WriteReg(R7, 0x00000000)  returns 0x00 (0000ms, 0475ms total)
T216C 000:758 JLINK_WriteReg(R8, 0x00000000)  returns 0x00 (0000ms, 0475ms total)
T216C 000:758 JLINK_WriteReg(R9, 0x20000160)  returns 0x00 (0000ms, 0475ms total)
T216C 000:758 JLINK_WriteReg(R10, 0x00000000)  returns 0x00 (0000ms, 0475ms total)
T216C 000:758 JLINK_WriteReg(R11, 0x00000000)  returns 0x00 (0000ms, 0475ms total)
T216C 000:758 JLINK_WriteReg(R12, 0x00000000)  returns 0x00 (0000ms, 0475ms total)
T216C 000:758 JLINK_WriteReg(R13, 0x20000800)  returns 0x00 (0000ms, 0475ms total)
T216C 000:758 JLINK_WriteReg(R14, 0x20000001)  returns 0x00 (0000ms, 0475ms total)
T216C 000:758 JLINK_WriteReg(R15, 0x200000F4)  returns 0x00 (0000ms, 0475ms total)
T216C 000:758 JLINK_WriteReg(XPSR, 0x01000000)  returns 0x00 (0000ms, 0475ms total)
T216C 000:758 JLINK_WriteReg(MSP, 0x20000800)  returns 0x00 (0000ms, 0475ms total)
T216C 000:758 JLINK_WriteReg(PSP, 0x20000800)  returns 0x00 (0000ms, 0475ms total)
T216C 000:758 JLINK_WriteReg(CFBP, 0x00000000)  returns 0x00 (0000ms, 0475ms total)
T216C 000:758 JLINK_SetBPEx(Addr = 0x20000000, Type = 0xFFFFFFF2)  returns 0x00000006 (0000ms, 0475ms total)
T216C 000:758 JLINK_Go() (0003ms, 0478ms total)
T216C 000:761 JLINK_IsHalted()  returns FALSE (0001ms, 0479ms total)
T216C 000:764 JLINK_IsHalted()  returns FALSE (0001ms, 0479ms total)
T216C 000:766 JLINK_IsHalted()  returns FALSE (0001ms, 0479ms total)
T216C 000:768 JLINK_IsHalted()  returns FALSE (0001ms, 0479ms total)
T216C 000:770 JLINK_IsHalted()  returns FALSE (0001ms, 0479ms total)
T216C 000:772 JLINK_IsHalted()  returns FALSE (0001ms, 0479ms total)
T216C 000:774 JLINK_IsHalted()  returns FALSE (0001ms, 0479ms total)
T216C 000:776 JLINK_IsHalted()  returns FALSE (0001ms, 0479ms total)
T216C 000:780 JLINK_IsHalted()  returns FALSE (0001ms, 0479ms total)
T216C 000:782 JLINK_IsHalted()  returns FALSE (0001ms, 0479ms total)
T216C 000:784 JLINK_IsHalted()  returns FALSE (0001ms, 0479ms total)
T216C 000:786 JLINK_IsHalted()  returns FALSE (0001ms, 0479ms total)
T216C 000:788 JLINK_IsHalted()  returns FALSE (0001ms, 0479ms total)
T216C 000:790 JLINK_IsHalted()  returns FALSE (0001ms, 0479ms total)
T216C 000:796 JLINK_IsHalted() -- CPU_ReadMem(2 bytes @ 0x20000000)  returns TRUE (0005ms, 0483ms total)
T216C 000:801 JLINK_ReadReg(R15)  returns 0x20000000 (0000ms, 0478ms total)
T216C 000:801 JLINK_ClrBPEx(BPHandle = 0x00000006)  returns 0x00 (0000ms, 0478ms total)
T216C 000:801 JLINK_ReadReg(R0)  returns 0x00000000 (0000ms, 0478ms total)
T216C 000:801 JLINK_WriteMem(0x20000164, 0x0400 Bytes, ...) -- Data:  00 23 00 20 4A 11 01 2A 02 D1 B8 4C 23 68 06 E0 ... -- CPU_WriteMem(1024 bytes @ 0x20000164)  returns 0x400 (0012ms, 0490ms total)
T216C 000:813 JLINK_WriteReg(R0, 0x08000800)  returns 0x00 (0000ms, 0490ms total)
T216C 000:813 JLINK_WriteReg(R1, 0x00000400)  returns 0x00 (0000ms, 0490ms total)
T216C 000:813 JLINK_WriteReg(R2, 0x20000164)  returns 0x00 (0000ms, 0490ms total)
T216C 000:813 JLINK_WriteReg(R3, 0x00000000)  returns 0x00 (0000ms, 0490ms total)
T216C 000:813 JLINK_WriteReg(R4, 0x00000000)  returns 0x00 (0000ms, 0490ms total)
T216C 000:813 JLINK_WriteReg(R5, 0x00000000)  returns 0x00 (0000ms, 0490ms total)
T216C 000:813 JLINK_WriteReg(R6, 0x00000000)  returns 0x00 (0000ms, 0490ms total)
T216C 000:813 JLINK_WriteReg(R7, 0x00000000)  returns 0x00 (0000ms, 0490ms total)
T216C 000:813 JLINK_WriteReg(R8, 0x00000000)  returns 0x00 (0000ms, 0490ms total)
T216C 000:813 JLINK_WriteReg(R9, 0x20000160)  returns 0x00 (0000ms, 0490ms total)
T216C 000:813 JLINK_WriteReg(R10, 0x00000000)  returns 0x00 (0000ms, 0490ms total)
T216C 000:813 JLINK_WriteReg(R11, 0x00000000)  returns 0x00 (0000ms, 0490ms total)
T216C 000:813 JLINK_WriteReg(R12, 0x00000000)  returns 0x00 (0000ms, 0490ms total)
T216C 000:813 JLINK_WriteReg(R13, 0x20000800)  returns 0x00 (0000ms, 0490ms total)
T216C 000:813 JLINK_WriteReg(R14, 0x20000001)  returns 0x00 (0000ms, 0490ms total)
T216C 000:813 JLINK_WriteReg(R15, 0x200000F4)  returns 0x00 (0000ms, 0490ms total)
T216C 000:813 JLINK_WriteReg(XPSR, 0x01000000)  returns 0x00 (0000ms, 0490ms total)
T216C 000:813 JLINK_WriteReg(MSP, 0x20000800)  returns 0x00 (0000ms, 0490ms total)
T216C 000:813 JLINK_WriteReg(PSP, 0x20000800)  returns 0x00 (0000ms, 0490ms total)
T216C 000:813 JLINK_WriteReg(CFBP, 0x00000000)  returns 0x00 (0000ms, 0490ms total)
T216C 000:813 JLINK_SetBPEx(Addr = 0x20000000, Type = 0xFFFFFFF2)  returns 0x00000007 (0000ms, 0490ms total)
T216C 000:813 JLINK_Go() (0003ms, 0493ms total)
T216C 000:816 JLINK_IsHalted()  returns FALSE (0001ms, 0494ms total)
T216C 000:820 JLINK_IsHalted()  returns FALSE (0001ms, 0494ms total)
T216C 000:822 JLINK_IsHalted()  returns FALSE (0001ms, 0494ms total)
T216C 000:824 JLINK_IsHalted()  returns FALSE (0001ms, 0494ms total)
T216C 000:826 JLINK_IsHalted()  returns FALSE (0001ms, 0494ms total)
T216C 000:828 JLINK_IsHalted()  returns FALSE (0001ms, 0494ms total)
T216C 000:830 JLINK_IsHalted()  returns FALSE (0001ms, 0494ms total)
T216C 000:832 JLINK_IsHalted()  returns FALSE (0001ms, 0494ms total)
T216C 000:834 JLINK_IsHalted()  returns FALSE (0001ms, 0494ms total)
T216C 000:836 JLINK_IsHalted()  returns FALSE (0001ms, 0494ms total)
T216C 000:838 JLINK_IsHalted()  returns FALSE (0001ms, 0494ms total)
T216C 000:843 JLINK_IsHalted()  returns FALSE (0001ms, 0494ms total)
T216C 000:845 JLINK_IsHalted()  returns FALSE (0001ms, 0494ms total)
T216C 000:847 JLINK_IsHalted() -- CPU_ReadMem(2 bytes @ 0x20000000)  returns TRUE (0005ms, 0498ms total)
T216C 000:852 JLINK_ReadReg(R15)  returns 0x20000000 (0000ms, 0493ms total)
T216C 000:852 JLINK_ClrBPEx(BPHandle = 0x00000007)  returns 0x00 (0000ms, 0493ms total)
T216C 000:852 JLINK_ReadReg(R0)  returns 0x00000000 (0000ms, 0493ms total)
T216C 000:852 JLINK_WriteMem(0x20000164, 0x0400 Bytes, ...) -- Data:  70 47 01 46 00 20 14 4A 12 1D 12 88 0A 42 01 D0 ... -- CPU_WriteMem(1024 bytes @ 0x20000164)  returns 0x400 (0012ms, 0505ms total)
T216C 000:864 JLINK_WriteReg(R0, 0x08000C00)  returns 0x00 (0000ms, 0505ms total)
T216C 000:864 JLINK_WriteReg(R1, 0x00000400)  returns 0x00 (0000ms, 0505ms total)
T216C 000:864 JLINK_WriteReg(R2, 0x20000164)  returns 0x00 (0000ms, 0505ms total)
T216C 000:864 JLINK_WriteReg(R3, 0x00000000)  returns 0x00 (0000ms, 0505ms total)
T216C 000:864 JLINK_WriteReg(R4, 0x00000000)  returns 0x00 (0000ms, 0505ms total)
T216C 000:864 JLINK_WriteReg(R5, 0x00000000)  returns 0x00 (0000ms, 0505ms total)
T216C 000:864 JLINK_WriteReg(R6, 0x00000000)  returns 0x00 (0000ms, 0505ms total)
T216C 000:864 JLINK_WriteReg(R7, 0x00000000)  returns 0x00 (0000ms, 0505ms total)
T216C 000:864 JLINK_WriteReg(R8, 0x00000000)  returns 0x00 (0000ms, 0505ms total)
T216C 000:864 JLINK_WriteReg(R9, 0x20000160)  returns 0x00 (0000ms, 0505ms total)
T216C 000:864 JLINK_WriteReg(R10, 0x00000000)  returns 0x00 (0000ms, 0505ms total)
T216C 000:864 JLINK_WriteReg(R11, 0x00000000)  returns 0x00 (0000ms, 0505ms total)
T216C 000:864 JLINK_WriteReg(R12, 0x00000000)  returns 0x00 (0000ms, 0505ms total)
T216C 000:864 JLINK_WriteReg(R13, 0x20000800)  returns 0x00 (0000ms, 0505ms total)
T216C 000:864 JLINK_WriteReg(R14, 0x20000001)  returns 0x00 (0000ms, 0505ms total)
T216C 000:864 JLINK_WriteReg(R15, 0x200000F4)  returns 0x00 (0000ms, 0505ms total)
T216C 000:864 JLINK_WriteReg(XPSR, 0x01000000)  returns 0x00 (0000ms, 0505ms total)
T216C 000:864 JLINK_WriteReg(MSP, 0x20000800)  returns 0x00 (0000ms, 0505ms total)
T216C 000:864 JLINK_WriteReg(PSP, 0x20000800)  returns 0x00 (0000ms, 0505ms total)
T216C 000:864 JLINK_WriteReg(CFBP, 0x00000000)  returns 0x00 (0000ms, 0505ms total)
T216C 000:864 JLINK_SetBPEx(Addr = 0x20000000, Type = 0xFFFFFFF2)  returns 0x00000008 (0000ms, 0505ms total)
T216C 000:864 JLINK_Go() (0003ms, 0508ms total)
T216C 000:867 JLINK_IsHalted()  returns FALSE (0001ms, 0509ms total)
T216C 000:870 JLINK_IsHalted()  returns FALSE (0001ms, 0509ms total)
T216C 000:872 JLINK_IsHalted()  returns FALSE (0001ms, 0509ms total)
T216C 000:874 JLINK_IsHalted()  returns FALSE (0000ms, 0508ms total)
T216C 000:875 JLINK_IsHalted()  returns FALSE (0000ms, 0508ms total)
T216C 000:876 JLINK_IsHalted()  returns FALSE (0000ms, 0508ms total)
T216C 000:877 JLINK_IsHalted()  returns FALSE (0001ms, 0509ms total)
T216C 000:879 JLINK_IsHalted()  returns FALSE (0000ms, 0508ms total)
T216C 000:880 JLINK_IsHalted()  returns FALSE (0000ms, 0508ms total)
T216C 000:881 JLINK_IsHalted()  returns FALSE (0001ms, 0509ms total)
T216C 000:883 JLINK_IsHalted()  returns FALSE (0000ms, 0508ms total)
T216C 000:884 JLINK_IsHalted()  returns FALSE (0000ms, 0508ms total)
T216C 000:885 JLINK_IsHalted()  returns FALSE (0001ms, 0509ms total)
T216C 000:889 JLINK_IsHalted()  returns FALSE (0001ms, 0509ms total)
T216C 000:891 JLINK_IsHalted()  returns FALSE (0001ms, 0509ms total)
T216C 000:893 JLINK_IsHalted()  returns FALSE (0001ms, 0509ms total)
T216C 000:895 JLINK_IsHalted()  returns FALSE (0001ms, 0509ms total)
T216C 000:897 JLINK_IsHalted()  returns FALSE (0001ms, 0509ms total)
T216C 000:899 JLINK_IsHalted() -- CPU_ReadMem(2 bytes @ 0x20000000)  returns TRUE (0005ms, 0513ms total)
T216C 000:904 JLINK_ReadReg(R15)  returns 0x20000000 (0000ms, 0508ms total)
T216C 000:904 JLINK_ClrBPEx(BPHandle = 0x00000008)  returns 0x00 (0000ms, 0508ms total)
T216C 000:904 JLINK_ReadReg(R0)  returns 0x00000000 (0000ms, 0508ms total)
T216C 000:904 JLINK_WriteMem(0x20000164, 0x0400 Bytes, ...) -- Data:  08 D1 01 21 20 20 FF F7 46 FD 00 21 20 20 FF F7 ... -- CPU_WriteMem(1024 bytes @ 0x20000164)  returns 0x400 (0011ms, 0519ms total)
T216C 000:915 JLINK_WriteReg(R0, 0x08001000)  returns 0x00 (0000ms, 0519ms total)
T216C 000:915 JLINK_WriteReg(R1, 0x00000400)  returns 0x00 (0000ms, 0519ms total)
T216C 000:915 JLINK_WriteReg(R2, 0x20000164)  returns 0x00 (0000ms, 0519ms total)
T216C 000:915 JLINK_WriteReg(R3, 0x00000000)  returns 0x00 (0000ms, 0519ms total)
T216C 000:915 JLINK_WriteReg(R4, 0x00000000)  returns 0x00 (0000ms, 0519ms total)
T216C 000:915 JLINK_WriteReg(R5, 0x00000000)  returns 0x00 (0000ms, 0519ms total)
T216C 000:915 JLINK_WriteReg(R6, 0x00000000)  returns 0x00 (0000ms, 0519ms total)
T216C 000:915 JLINK_WriteReg(R7, 0x00000000)  returns 0x00 (0000ms, 0519ms total)
T216C 000:915 JLINK_WriteReg(R8, 0x00000000)  returns 0x00 (0000ms, 0519ms total)
T216C 000:915 JLINK_WriteReg(R9, 0x20000160)  returns 0x00 (0000ms, 0519ms total)
T216C 000:915 JLINK_WriteReg(R10, 0x00000000)  returns 0x00 (0000ms, 0519ms total)
T216C 000:915 JLINK_WriteReg(R11, 0x00000000)  returns 0x00 (0000ms, 0519ms total)
T216C 000:915 JLINK_WriteReg(R12, 0x00000000)  returns 0x00 (0000ms, 0519ms total)
T216C 000:916 JLINK_WriteReg(R13, 0x20000800)  returns 0x00 (0000ms, 0519ms total)
T216C 000:916 JLINK_WriteReg(R14, 0x20000001)  returns 0x00 (0000ms, 0519ms total)
T216C 000:916 JLINK_WriteReg(R15, 0x200000F4)  returns 0x00 (0000ms, 0519ms total)
T216C 000:916 JLINK_WriteReg(XPSR, 0x01000000)  returns 0x00 (0000ms, 0519ms total)
T216C 000:916 JLINK_WriteReg(MSP, 0x20000800)  returns 0x00 (0000ms, 0519ms total)
T216C 000:916 JLINK_WriteReg(PSP, 0x20000800)  returns 0x00 (0000ms, 0519ms total)
T216C 000:916 JLINK_WriteReg(CFBP, 0x00000000)  returns 0x00 (0000ms, 0519ms total)
T216C 000:916 JLINK_SetBPEx(Addr = 0x20000000, Type = 0xFFFFFFF2)  returns 0x00000009 (0000ms, 0519ms total)
T216C 000:916 JLINK_Go() (0002ms, 0521ms total)
T216C 000:918 JLINK_IsHalted()  returns FALSE (0001ms, 0522ms total)
T216C 000:924 JLINK_IsHalted()  returns FALSE (0001ms, 0522ms total)
T216C 000:926 JLINK_IsHalted()  returns FALSE (0001ms, 0522ms total)
T216C 000:928 JLINK_IsHalted()  returns FALSE (0001ms, 0522ms total)
T216C 000:930 JLINK_IsHalted()  returns FALSE (0001ms, 0522ms total)
T216C 000:932 JLINK_IsHalted()  returns FALSE (0001ms, 0522ms total)
T216C 000:934 JLINK_IsHalted()  returns FALSE (0001ms, 0522ms total)
T216C 000:936 JLINK_IsHalted()  returns FALSE (0001ms, 0522ms total)
T216C 000:938 JLINK_IsHalted()  returns FALSE (0001ms, 0522ms total)
T216C 000:940 JLINK_IsHalted()  returns FALSE (0001ms, 0522ms total)
T216C 000:942 JLINK_IsHalted()  returns FALSE (0001ms, 0522ms total)
T216C 000:944 JLINK_IsHalted()  returns FALSE (0001ms, 0522ms total)
T216C 000:946 JLINK_IsHalted()  returns FALSE (0001ms, 0522ms total)
T216C 000:948 JLINK_IsHalted()  returns FALSE (0001ms, 0522ms total)
T216C 000:950 JLINK_IsHalted() -- CPU_ReadMem(2 bytes @ 0x20000000)  returns TRUE (0005ms, 0526ms total)
T216C 000:955 JLINK_ReadReg(R15)  returns 0x20000000 (0000ms, 0521ms total)
T216C 000:955 JLINK_ClrBPEx(BPHandle = 0x00000009)  returns 0x00 (0000ms, 0521ms total)
T216C 000:955 JLINK_ReadReg(R0)  returns 0x00000000 (0000ms, 0521ms total)
T216C 000:955 JLINK_WriteMem(0x20000164, 0x0400 Bytes, ...) -- Data:  4F F6 FF 73 03 EA 01 23 1A 43 82 83 70 47 F0 B5 ... -- CPU_WriteMem(1024 bytes @ 0x20000164)  returns 0x400 (0012ms, 0533ms total)
T216C 000:967 JLINK_WriteReg(R0, 0x08001400)  returns 0x00 (0000ms, 0533ms total)
T216C 000:967 JLINK_WriteReg(R1, 0x00000400)  returns 0x00 (0000ms, 0533ms total)
T216C 000:967 JLINK_WriteReg(R2, 0x20000164)  returns 0x00 (0000ms, 0533ms total)
T216C 000:967 JLINK_WriteReg(R3, 0x00000000)  returns 0x00 (0000ms, 0533ms total)
T216C 000:967 JLINK_WriteReg(R4, 0x00000000)  returns 0x00 (0000ms, 0533ms total)
T216C 000:967 JLINK_WriteReg(R5, 0x00000000)  returns 0x00 (0000ms, 0533ms total)
T216C 000:967 JLINK_WriteReg(R6, 0x00000000)  returns 0x00 (0000ms, 0533ms total)
T216C 000:967 JLINK_WriteReg(R7, 0x00000000)  returns 0x00 (0000ms, 0533ms total)
T216C 000:967 JLINK_WriteReg(R8, 0x00000000)  returns 0x00 (0000ms, 0533ms total)
T216C 000:967 JLINK_WriteReg(R9, 0x20000160)  returns 0x00 (0000ms, 0533ms total)
T216C 000:967 JLINK_WriteReg(R10, 0x00000000)  returns 0x00 (0000ms, 0533ms total)
T216C 000:967 JLINK_WriteReg(R11, 0x00000000)  returns 0x00 (0000ms, 0533ms total)
T216C 000:967 JLINK_WriteReg(R12, 0x00000000)  returns 0x00 (0000ms, 0533ms total)
T216C 000:967 JLINK_WriteReg(R13, 0x20000800)  returns 0x00 (0000ms, 0533ms total)
T216C 000:967 JLINK_WriteReg(R14, 0x20000001)  returns 0x00 (0000ms, 0533ms total)
T216C 000:967 JLINK_WriteReg(R15, 0x200000F4)  returns 0x00 (0000ms, 0533ms total)
T216C 000:967 JLINK_WriteReg(XPSR, 0x01000000)  returns 0x00 (0000ms, 0533ms total)
T216C 000:967 JLINK_WriteReg(MSP, 0x20000800)  returns 0x00 (0000ms, 0533ms total)
T216C 000:967 JLINK_WriteReg(PSP, 0x20000800)  returns 0x00 (0000ms, 0533ms total)
T216C 000:967 JLINK_WriteReg(CFBP, 0x00000000)  returns 0x00 (0000ms, 0533ms total)
T216C 000:967 JLINK_SetBPEx(Addr = 0x20000000, Type = 0xFFFFFFF2)  returns 0x0000000A (0000ms, 0533ms total)
T216C 000:967 JLINK_Go() (0003ms, 0536ms total)
T216C 000:970 JLINK_IsHalted()  returns FALSE (0001ms, 0537ms total)
T216C 000:981 JLINK_IsHalted()  returns FALSE (0001ms, 0537ms total)
T216C 000:983 JLINK_IsHalted()  returns FALSE (0001ms, 0537ms total)
T216C 000:985 JLINK_IsHalted()  returns FALSE (0001ms, 0537ms total)
T216C 000:987 JLINK_IsHalted()  returns FALSE (0001ms, 0537ms total)
T216C 000:989 JLINK_IsHalted()  returns FALSE (0001ms, 0537ms total)
T216C 000:991 JLINK_IsHalted()  returns FALSE (0001ms, 0537ms total)
T216C 000:993 JLINK_IsHalted()  returns FALSE (0001ms, 0537ms total)
T216C 000:998 JLINK_IsHalted()  returns FALSE (0001ms, 0537ms total)
T216C 001:000 JLINK_IsHalted()  returns FALSE (0001ms, 0537ms total)
T216C 001:002 JLINK_IsHalted() -- CPU_ReadMem(2 bytes @ 0x20000000)  returns TRUE (0006ms, 0542ms total)
T216C 001:008 JLINK_ReadReg(R15)  returns 0x20000000 (0000ms, 0536ms total)
T216C 001:008 JLINK_ClrBPEx(BPHandle = 0x0000000A)  returns 0x00 (0000ms, 0536ms total)
T216C 001:008 JLINK_ReadReg(R0)  returns 0x00000000 (0000ms, 0536ms total)
T216C 001:009 JLINK_WriteMem(0x20000164, 0x0400 Bytes, ...) -- Data:  83 89 0B 43 83 81 02 E0 83 89 8B 43 83 81 70 47 ... -- CPU_WriteMem(1024 bytes @ 0x20000164)  returns 0x400 (0011ms, 0547ms total)
T216C 001:020 JLINK_WriteReg(R0, 0x08001800)  returns 0x00 (0000ms, 0547ms total)
T216C 001:020 JLINK_WriteReg(R1, 0x00000400)  returns 0x00 (0000ms, 0547ms total)
T216C 001:020 JLINK_WriteReg(R2, 0x20000164)  returns 0x00 (0000ms, 0547ms total)
T216C 001:020 JLINK_WriteReg(R3, 0x00000000)  returns 0x00 (0000ms, 0547ms total)
T216C 001:020 JLINK_WriteReg(R4, 0x00000000)  returns 0x00 (0000ms, 0547ms total)
T216C 001:020 JLINK_WriteReg(R5, 0x00000000)  returns 0x00 (0000ms, 0547ms total)
T216C 001:020 JLINK_WriteReg(R6, 0x00000000)  returns 0x00 (0000ms, 0547ms total)
T216C 001:020 JLINK_WriteReg(R7, 0x00000000)  returns 0x00 (0000ms, 0547ms total)
T216C 001:020 JLINK_WriteReg(R8, 0x00000000)  returns 0x00 (0000ms, 0547ms total)
T216C 001:020 JLINK_WriteReg(R9, 0x20000160)  returns 0x00 (0000ms, 0547ms total)
T216C 001:020 JLINK_WriteReg(R10, 0x00000000)  returns 0x00 (0000ms, 0547ms total)
T216C 001:020 JLINK_WriteReg(R11, 0x00000000)  returns 0x00 (0000ms, 0547ms total)
T216C 001:020 JLINK_WriteReg(R12, 0x00000000)  returns 0x00 (0000ms, 0547ms total)
T216C 001:020 JLINK_WriteReg(R13, 0x20000800)  returns 0x00 (0000ms, 0547ms total)
T216C 001:020 JLINK_WriteReg(R14, 0x20000001)  returns 0x00 (0000ms, 0547ms total)
T216C 001:020 JLINK_WriteReg(R15, 0x200000F4)  returns 0x00 (0000ms, 0547ms total)
T216C 001:020 JLINK_WriteReg(XPSR, 0x01000000)  returns 0x00 (0000ms, 0547ms total)
T216C 001:020 JLINK_WriteReg(MSP, 0x20000800)  returns 0x00 (0000ms, 0547ms total)
T216C 001:020 JLINK_WriteReg(PSP, 0x20000800)  returns 0x00 (0001ms, 0548ms total)
T216C 001:021 JLINK_WriteReg(CFBP, 0x00000000)  returns 0x00 (0000ms, 0548ms total)
T216C 001:021 JLINK_SetBPEx(Addr = 0x20000000, Type = 0xFFFFFFF2)  returns 0x0000000B (0000ms, 0548ms total)
T216C 001:021 JLINK_Go() (0002ms, 0550ms total)
T216C 001:023 JLINK_IsHalted()  returns FALSE (0001ms, 0551ms total)
T216C 001:030 JLINK_IsHalted()  returns FALSE (0001ms, 0551ms total)
T216C 001:033 JLINK_IsHalted()  returns FALSE (0001ms, 0551ms total)
T216C 001:035 JLINK_IsHalted()  returns FALSE (0001ms, 0551ms total)
T216C 001:037 JLINK_IsHalted()  returns FALSE (0001ms, 0551ms total)
T216C 001:039 JLINK_IsHalted()  returns FALSE (0001ms, 0551ms total)
T216C 001:041 JLINK_IsHalted()  returns FALSE (0001ms, 0551ms total)
T216C 001:043 JLINK_IsHalted()  returns FALSE (0001ms, 0551ms total)
T216C 001:045 JLINK_IsHalted()  returns FALSE (0001ms, 0551ms total)
T216C 001:047 JLINK_IsHalted()  returns FALSE (0001ms, 0551ms total)
T216C 001:049 JLINK_IsHalted()  returns FALSE (0001ms, 0551ms total)
T216C 001:051 JLINK_IsHalted()  returns FALSE (0001ms, 0551ms total)
T216C 001:053 JLINK_IsHalted()  returns FALSE (0001ms, 0551ms total)
T216C 001:055 JLINK_IsHalted() -- CPU_ReadMem(2 bytes @ 0x20000000)  returns TRUE (0005ms, 0555ms total)
T216C 001:060 JLINK_ReadReg(R15)  returns 0x20000000 (0000ms, 0550ms total)
T216C 001:060 JLINK_ClrBPEx(BPHandle = 0x0000000B)  returns 0x00 (0000ms, 0550ms total)
T216C 001:060 JLINK_ReadReg(R0)  returns 0x00000000 (0000ms, 0550ms total)
T216C 001:061 JLINK_WriteMem(0x20000164, 0x0400 Bytes, ...) -- Data:  04 8C 02 FA 01 F5 AD B2 2C 43 04 84 30 BD 70 B5 ... -- CPU_WriteMem(1024 bytes @ 0x20000164)  returns 0x400 (0011ms, 0561ms total)
T216C 001:072 JLINK_WriteReg(R0, 0x08001C00)  returns 0x00 (0000ms, 0561ms total)
T216C 001:072 JLINK_WriteReg(R1, 0x00000400)  returns 0x00 (0000ms, 0561ms total)
T216C 001:072 JLINK_WriteReg(R2, 0x20000164)  returns 0x00 (0000ms, 0561ms total)
T216C 001:072 JLINK_WriteReg(R3, 0x00000000)  returns 0x00 (0000ms, 0561ms total)
T216C 001:072 JLINK_WriteReg(R4, 0x00000000)  returns 0x00 (0000ms, 0561ms total)
T216C 001:072 JLINK_WriteReg(R5, 0x00000000)  returns 0x00 (0000ms, 0561ms total)
T216C 001:072 JLINK_WriteReg(R6, 0x00000000)  returns 0x00 (0000ms, 0561ms total)
T216C 001:072 JLINK_WriteReg(R7, 0x00000000)  returns 0x00 (0000ms, 0561ms total)
T216C 001:072 JLINK_WriteReg(R8, 0x00000000)  returns 0x00 (0000ms, 0561ms total)
T216C 001:072 JLINK_WriteReg(R9, 0x20000160)  returns 0x00 (0000ms, 0561ms total)
T216C 001:072 JLINK_WriteReg(R10, 0x00000000)  returns 0x00 (0000ms, 0561ms total)
T216C 001:072 JLINK_WriteReg(R11, 0x00000000)  returns 0x00 (0000ms, 0561ms total)
T216C 001:072 JLINK_WriteReg(R12, 0x00000000)  returns 0x00 (0000ms, 0561ms total)
T216C 001:072 JLINK_WriteReg(R13, 0x20000800)  returns 0x00 (0000ms, 0561ms total)
T216C 001:072 JLINK_WriteReg(R14, 0x20000001)  returns 0x00 (0000ms, 0561ms total)
T216C 001:072 JLINK_WriteReg(R15, 0x200000F4)  returns 0x00 (0000ms, 0561ms total)
T216C 001:072 JLINK_WriteReg(XPSR, 0x01000000)  returns 0x00 (0000ms, 0561ms total)
T216C 001:072 JLINK_WriteReg(MSP, 0x20000800)  returns 0x00 (0000ms, 0561ms total)
T216C 001:072 JLINK_WriteReg(PSP, 0x20000800)  returns 0x00 (0000ms, 0561ms total)
T216C 001:072 JLINK_WriteReg(CFBP, 0x00000000)  returns 0x00 (0000ms, 0561ms total)
T216C 001:072 JLINK_SetBPEx(Addr = 0x20000000, Type = 0xFFFFFFF2)  returns 0x0000000C (0000ms, 0561ms total)
T216C 001:072 JLINK_Go() (0003ms, 0564ms total)
T216C 001:075 JLINK_IsHalted()  returns FALSE (0001ms, 0565ms total)
T216C 001:086 JLINK_IsHalted()  returns FALSE (0001ms, 0565ms total)
T216C 001:088 JLINK_IsHalted()  returns FALSE (0001ms, 0565ms total)
T216C 001:090 JLINK_IsHalted()  returns FALSE (0001ms, 0565ms total)
T216C 001:092 JLINK_IsHalted()  returns FALSE (0001ms, 0565ms total)
T216C 001:095 JLINK_IsHalted()  returns FALSE (0001ms, 0565ms total)
T216C 001:097 JLINK_IsHalted()  returns FALSE (0001ms, 0565ms total)
T216C 001:099 JLINK_IsHalted()  returns FALSE (0001ms, 0565ms total)
T216C 001:101 JLINK_IsHalted()  returns FALSE (0001ms, 0565ms total)
T216C 001:110 JLINK_IsHalted() -- CPU_ReadMem(2 bytes @ 0x20000000)  returns TRUE (0005ms, 0569ms total)
T216C 001:115 JLINK_ReadReg(R15)  returns 0x20000000 (0000ms, 0564ms total)
T216C 001:115 JLINK_ClrBPEx(BPHandle = 0x0000000C)  returns 0x00 (0000ms, 0564ms total)
T216C 001:115 JLINK_ReadReg(R0)  returns 0x00000000 (0000ms, 0564ms total)
T216C 001:116 JLINK_WriteMem(0x20000164, 0x0400 Bytes, ...) -- Data:  82 80 70 47 01 46 88 88 C0 F3 08 00 70 47 81 89 ... -- CPU_WriteMem(1024 bytes @ 0x20000164)  returns 0x400 (0011ms, 0575ms total)
T216C 001:127 JLINK_WriteReg(R0, 0x08002000)  returns 0x00 (0000ms, 0575ms total)
T216C 001:127 JLINK_WriteReg(R1, 0x00000400)  returns 0x00 (0000ms, 0575ms total)
T216C 001:127 JLINK_WriteReg(R2, 0x20000164)  returns 0x00 (0000ms, 0575ms total)
T216C 001:127 JLINK_WriteReg(R3, 0x00000000)  returns 0x00 (0000ms, 0575ms total)
T216C 001:127 JLINK_WriteReg(R4, 0x00000000)  returns 0x00 (0000ms, 0575ms total)
T216C 001:127 JLINK_WriteReg(R5, 0x00000000)  returns 0x00 (0000ms, 0575ms total)
T216C 001:127 JLINK_WriteReg(R6, 0x00000000)  returns 0x00 (0000ms, 0575ms total)
T216C 001:127 JLINK_WriteReg(R7, 0x00000000)  returns 0x00 (0000ms, 0575ms total)
T216C 001:127 JLINK_WriteReg(R8, 0x00000000)  returns 0x00 (0000ms, 0575ms total)
T216C 001:127 JLINK_WriteReg(R9, 0x20000160)  returns 0x00 (0000ms, 0575ms total)
T216C 001:127 JLINK_WriteReg(R10, 0x00000000)  returns 0x00 (0000ms, 0575ms total)
T216C 001:127 JLINK_WriteReg(R11, 0x00000000)  returns 0x00 (0000ms, 0575ms total)
T216C 001:127 JLINK_WriteReg(R12, 0x00000000)  returns 0x00 (0000ms, 0575ms total)
T216C 001:127 JLINK_WriteReg(R13, 0x20000800)  returns 0x00 (0000ms, 0575ms total)
T216C 001:127 JLINK_WriteReg(R14, 0x20000001)  returns 0x00 (0000ms, 0575ms total)
T216C 001:127 JLINK_WriteReg(R15, 0x200000F4)  returns 0x00 (0000ms, 0575ms total)
T216C 001:127 JLINK_WriteReg(XPSR, 0x01000000)  returns 0x00 (0000ms, 0575ms total)
T216C 001:127 JLINK_WriteReg(MSP, 0x20000800)  returns 0x00 (0000ms, 0575ms total)
T216C 001:127 JLINK_WriteReg(PSP, 0x20000800)  returns 0x00 (0000ms, 0575ms total)
T216C 001:127 JLINK_WriteReg(CFBP, 0x00000000)  returns 0x00 (0000ms, 0575ms total)
T216C 001:127 JLINK_SetBPEx(Addr = 0x20000000, Type = 0xFFFFFFF2)  returns 0x0000000D (0000ms, 0575ms total)
T216C 001:127 JLINK_Go() (0003ms, 0578ms total)
T216C 001:130 JLINK_IsHalted()  returns FALSE (0001ms, 0579ms total)
T216C 001:139 JLINK_IsHalted()  returns FALSE (0002ms, 0580ms total)
T216C 001:143 JLINK_IsHalted()  returns FALSE (0001ms, 0579ms total)
T216C 001:145 JLINK_IsHalted()  returns FALSE (0001ms, 0579ms total)
T216C 001:147 JLINK_IsHalted()  returns FALSE (0001ms, 0579ms total)
T216C 001:149 JLINK_IsHalted()  returns FALSE (0001ms, 0579ms total)
T216C 001:153 JLINK_IsHalted()  returns FALSE (0001ms, 0579ms total)
T216C 001:155 JLINK_IsHalted()  returns FALSE (0001ms, 0579ms total)
T216C 001:157 JLINK_IsHalted()  returns FALSE (0001ms, 0579ms total)
T216C 001:160 JLINK_IsHalted()  returns FALSE (0001ms, 0579ms total)
T216C 001:162 JLINK_IsHalted() -- CPU_ReadMem(2 bytes @ 0x20000000)  returns TRUE (0005ms, 0583ms total)
T216C 001:167 JLINK_ReadReg(R15)  returns 0x20000000 (0000ms, 0578ms total)
T216C 001:167 JLINK_ClrBPEx(BPHandle = 0x0000000D)  returns 0x00 (0000ms, 0578ms total)
T216C 001:167 JLINK_ReadReg(R0)  returns 0x00000000 (0000ms, 0578ms total)
T216C 001:167 JLINK_WriteMem(0x20000164, 0x0400 Bytes, ...) -- Data:  77 0A 00 00 4B 45 59 34 20 50 52 45 53 53 20 2C ... -- CPU_WriteMem(1024 bytes @ 0x20000164)  returns 0x400 (0012ms, 0590ms total)
T216C 001:179 JLINK_WriteReg(R0, 0x08002400)  returns 0x00 (0000ms, 0590ms total)
T216C 001:179 JLINK_WriteReg(R1, 0x00000400)  returns 0x00 (0000ms, 0590ms total)
T216C 001:179 JLINK_WriteReg(R2, 0x20000164)  returns 0x00 (0000ms, 0590ms total)
T216C 001:179 JLINK_WriteReg(R3, 0x00000000)  returns 0x00 (0000ms, 0590ms total)
T216C 001:179 JLINK_WriteReg(R4, 0x00000000)  returns 0x00 (0000ms, 0590ms total)
T216C 001:179 JLINK_WriteReg(R5, 0x00000000)  returns 0x00 (0000ms, 0590ms total)
T216C 001:179 JLINK_WriteReg(R6, 0x00000000)  returns 0x00 (0000ms, 0590ms total)
T216C 001:179 JLINK_WriteReg(R7, 0x00000000)  returns 0x00 (0000ms, 0590ms total)
T216C 001:179 JLINK_WriteReg(R8, 0x00000000)  returns 0x00 (0000ms, 0590ms total)
T216C 001:179 JLINK_WriteReg(R9, 0x20000160)  returns 0x00 (0000ms, 0590ms total)
T216C 001:179 JLINK_WriteReg(R10, 0x00000000)  returns 0x00 (0000ms, 0590ms total)
T216C 001:179 JLINK_WriteReg(R11, 0x00000000)  returns 0x00 (0000ms, 0590ms total)
T216C 001:179 JLINK_WriteReg(R12, 0x00000000)  returns 0x00 (0000ms, 0590ms total)
T216C 001:179 JLINK_WriteReg(R13, 0x20000800)  returns 0x00 (0000ms, 0590ms total)
T216C 001:179 JLINK_WriteReg(R14, 0x20000001)  returns 0x00 (0000ms, 0590ms total)
T216C 001:179 JLINK_WriteReg(R15, 0x200000F4)  returns 0x00 (0000ms, 0590ms total)
T216C 001:179 JLINK_WriteReg(XPSR, 0x01000000)  returns 0x00 (0000ms, 0590ms total)
T216C 001:179 JLINK_WriteReg(MSP, 0x20000800)  returns 0x00 (0000ms, 0590ms total)
T216C 001:179 JLINK_WriteReg(PSP, 0x20000800)  returns 0x00 (0000ms, 0590ms total)
T216C 001:179 JLINK_WriteReg(CFBP, 0x00000000)  returns 0x00 (0000ms, 0590ms total)
T216C 001:179 JLINK_SetBPEx(Addr = 0x20000000, Type = 0xFFFFFFF2)  returns 0x0000000E (0000ms, 0590ms total)
T216C 001:179 JLINK_Go() (0003ms, 0593ms total)
T216C 001:182 JLINK_IsHalted()  returns FALSE (0001ms, 0594ms total)
T216C 001:194 JLINK_IsHalted()  returns FALSE (0001ms, 0594ms total)
T216C 001:196 JLINK_IsHalted()  returns FALSE (0001ms, 0594ms total)
T216C 001:199 JLINK_IsHalted()  returns FALSE (0001ms, 0594ms total)
T216C 001:201 JLINK_IsHalted()  returns FALSE (0001ms, 0594ms total)
T216C 001:203 JLINK_IsHalted()  returns FALSE (0001ms, 0594ms total)
T216C 001:205 JLINK_IsHalted()  returns FALSE (0001ms, 0594ms total)
T216C 001:208 JLINK_IsHalted()  returns FALSE (0001ms, 0594ms total)
T216C 001:210 JLINK_IsHalted()  returns FALSE (0001ms, 0594ms total)
T216C 001:212 JLINK_IsHalted()  returns FALSE (0001ms, 0594ms total)
T216C 001:216 JLINK_IsHalted() -- CPU_ReadMem(2 bytes @ 0x20000000)  returns TRUE (0005ms, 0598ms total)
T216C 001:221 JLINK_ReadReg(R15)  returns 0x20000000 (0000ms, 0593ms total)
T216C 001:221 JLINK_ClrBPEx(BPHandle = 0x0000000E)  returns 0x00 (0000ms, 0593ms total)
T216C 001:221 JLINK_ReadReg(R0)  returns 0x00000000 (0000ms, 0593ms total)
T216C 001:221 JLINK_WriteMem(0x20000164, 0x0400 Bytes, ...) -- Data:  02 EB 42 02 11 44 D1 F8 01 00 01 21 FE F7 1C F9 ... -- CPU_WriteMem(1024 bytes @ 0x20000164)  returns 0x400 (0012ms, 0605ms total)
T216C 001:233 JLINK_WriteReg(R0, 0x08002800)  returns 0x00 (0000ms, 0605ms total)
T216C 001:233 JLINK_WriteReg(R1, 0x00000400)  returns 0x00 (0000ms, 0605ms total)
T216C 001:233 JLINK_WriteReg(R2, 0x20000164)  returns 0x00 (0000ms, 0605ms total)
T216C 001:233 JLINK_WriteReg(R3, 0x00000000)  returns 0x00 (0000ms, 0605ms total)
T216C 001:233 JLINK_WriteReg(R4, 0x00000000)  returns 0x00 (0000ms, 0605ms total)
T216C 001:233 JLINK_WriteReg(R5, 0x00000000)  returns 0x00 (0000ms, 0605ms total)
T216C 001:233 JLINK_WriteReg(R6, 0x00000000)  returns 0x00 (0000ms, 0605ms total)
T216C 001:233 JLINK_WriteReg(R7, 0x00000000)  returns 0x00 (0000ms, 0605ms total)
T216C 001:233 JLINK_WriteReg(R8, 0x00000000)  returns 0x00 (0000ms, 0605ms total)
T216C 001:233 JLINK_WriteReg(R9, 0x20000160)  returns 0x00 (0000ms, 0605ms total)
T216C 001:233 JLINK_WriteReg(R10, 0x00000000)  returns 0x00 (0000ms, 0605ms total)
T216C 001:233 JLINK_WriteReg(R11, 0x00000000)  returns 0x00 (0000ms, 0605ms total)
T216C 001:233 JLINK_WriteReg(R12, 0x00000000)  returns 0x00 (0000ms, 0605ms total)
T216C 001:233 JLINK_WriteReg(R13, 0x20000800)  returns 0x00 (0000ms, 0605ms total)
T216C 001:233 JLINK_WriteReg(R14, 0x20000001)  returns 0x00 (0000ms, 0605ms total)
T216C 001:233 JLINK_WriteReg(R15, 0x200000F4)  returns 0x00 (0000ms, 0605ms total)
T216C 001:233 JLINK_WriteReg(XPSR, 0x01000000)  returns 0x00 (0000ms, 0605ms total)
T216C 001:233 JLINK_WriteReg(MSP, 0x20000800)  returns 0x00 (0000ms, 0605ms total)
T216C 001:233 JLINK_WriteReg(PSP, 0x20000800)  returns 0x00 (0000ms, 0605ms total)
T216C 001:233 JLINK_WriteReg(CFBP, 0x00000000)  returns 0x00 (0000ms, 0605ms total)
T216C 001:233 JLINK_SetBPEx(Addr = 0x20000000, Type = 0xFFFFFFF2)  returns 0x0000000F (0000ms, 0605ms total)
T216C 001:233 JLINK_Go() (0003ms, 0608ms total)
T216C 001:236 JLINK_IsHalted()  returns FALSE (0001ms, 0609ms total)
T216C 001:242 JLINK_IsHalted()  returns FALSE (0001ms, 0609ms total)
T216C 001:244 JLINK_IsHalted()  returns FALSE (0001ms, 0609ms total)
T216C 001:248 JLINK_IsHalted()  returns FALSE (0001ms, 0609ms total)
